
**** 12/16/20 16:10:51 ******* PSpice 17.4.0 (Nov 2018) ******* ID# 0 ********

 ** Profile: "SCHEMATIC1-ac_sweep"  [ C:\Users\a0232073\Desktop\GWL_Models\OPA695\AppendScript\OPA695_PSPICE\opa695_pspice-pspicefile


 ****     CIRCUIT DESCRIPTION


******************************************************************************




** Creating circuit file "ac_sweep.cir" 
** WARNING: THIS AUTOMATICALLY GENERATED FILE MAY BE OVERWRITTEN BY SUBSEQUENT SIMULATIONS

*Libraries: 
* Profile Libraries :
* Local Libraries :
.LIB "../../../opa695_a.lib" 
* From [PSPICE NETLIST] section of C:\SPB_Data\cdssetup\OrCAD_PSpiceTIPSpice_Install\17.4.0\PSpice.ini file:
.lib "nom_pspti.lib" 
.lib "nom.lib" 

*Analysis directives: 
.AC DEC 31 1k 1G
.OPTIONS ADVCONV
.PROBE64 N([OUT])
.INC "..\SCHEMATIC1.net" 



**** INCLUDING SCHEMATIC1.net ****
* source OPA695_PSPICE
X_U1         N00308 N00315 OUT VCC VEE OPA695
R_R1         N00315 OUT  1k TC=0,0 
R_R2         0 N00315  1k TC=0,0 
V_V1         VEE 0 -5Vdc
V_V2         VCC 0 5Vdc
V_V3         N00308 0 DC 0Vdc AC 1Vac 

**** RESUMING ac_sweep.cir ****
.END

INFO(ORPSIM-16573): AC analysis does not support expression evaluation at each frequency. ABM devices with non-linear operations will be evaluated only at bias point.

**** 12/16/20 16:10:51 ******* PSpice 17.4.0 (Nov 2018) ******* ID# 0 ********

 ** Profile: "SCHEMATIC1-ac_sweep"  [ C:\Users\a0232073\Desktop\GWL_Models\OPA695\AppendScript\OPA695_PSPICE\opa695_pspice-pspicefile


 ****     Diode MODEL PARAMETERS


******************************************************************************




               X_U1.X_E_N.DVN  X_U1.X_I_NP.DVNF 
          IS  100.000000E-18  100.000000E-18 
          KF  316.227800E-12  316.227800E-12 


               X_U1.X_I_NP2.DVNF 
          IS  100.000000E-18 
          KF  316.227800E-12 


**** 12/16/20 16:10:51 ******* PSpice 17.4.0 (Nov 2018) ******* ID# 0 ********

 ** Profile: "SCHEMATIC1-ac_sweep"  [ C:\Users\a0232073\Desktop\GWL_Models\OPA695\AppendScript\OPA695_PSPICE\opa695_pspice-pspicefile


 ****     Resistor MODEL PARAMETERS


******************************************************************************




               X_U1.R_NOISE    X_U1.R_NOISELESS 
  T_Measured   27              27            
   T_Current   27            -273.15         
           R    1               1            


**** 12/16/20 16:10:51 ******* PSpice 17.4.0 (Nov 2018) ******* ID# 0 ********

 ** Profile: "SCHEMATIC1-ac_sweep"  [ C:\Users\a0232073\Desktop\GWL_Models\OPA695\AppendScript\OPA695_PSPICE\opa695_pspice-pspicefile


 ****     SMALL SIGNAL BIAS SOLUTION       TEMPERATURE =   27.000 DEG C


******************************************************************************



 NODE   VOLTAGE     NODE   VOLTAGE     NODE   VOLTAGE     NODE   VOLTAGE


(  OUT)     .0336  (  VCC)    5.0000  (  VEE)   -5.0000  (N00308)    0.0000     

(N00315)     .0073 (X_U1.AOL)     .0336                  (X_U1.MID)-58.89E-21   

(X_U1.CMRR)-58.78E-21                 (X_U1.CLAMP)     .0337                    

(X_U1.VCC_B)    5.0000                (X_U1.VEE_B)   -5.0000                    

(X_U1.VIMON)     .0264                (X_U1.AOLNET)    -.0337                   

(X_U1.N05102)     .0073               (X_U1.N06456)    0.0000                   

(X_U1.N10561)    -.0067               (X_U1.N10570)    -.0067                   

(X_U1.N11984)    -.0067               (X_U1.N25816)     .0073                   

(X_U1.N28602)   -3.3000               (X_U1.N30136)    3.3000                   

(X_U1.N30913)     .0073               (X_U1.N31014)     .0073                   

(X_U1.N35669)    4.1997               (X_U1.N35813)    4.1997                   

(X_U1.N38050)   -4.2000               (X_U1.N38096)   -4.2000                   

(X_U1.N42663)-58.89E-21               (X_U1.N42834)-58.89E-21                   

(X_U1.N44757)-58.89E-21               (X_U1.N44799)-58.89E-21                   

(X_U1.VOUT_S)     .0336               (X_U1.N110431)     .0264                  

(X_U1.N112292)     .0336              (X_U1.N317950)-58.89E-21                  

(X_U1.N406634)    5.0000              (X_U1.N406794)   -5.0000                  

(X_U1.N701935)-4.128E-21              (X_U1.N704979)   -6.4993                  

(X_U1.N705005)    -.0078              (X_U1.N709083)    3.6601                  

(X_U1.N709113)     .0062              (X_U1.N749288)    -.0067                  

(X_U1.VCC_CLP)    4.1997              (X_U1.VEE_CLP)   -4.2000                  

(X_U1.X_E_N.3)    0.0000              (X_U1.X_E_N.4)    0.0000                  

(X_U1.X_E_N.5)    0.0000              (X_U1.X_E_N.6)    0.0000                  

(X_U1.X_E_N.7)     .8338              (X_U1.X_E_N.8)     .8338                  

(X_U1.N1327152)     .0073             (X_U1.X_I_NP.3)    0.0000                 

(X_U1.X_I_NP.4)    0.0000             (X_U1.X_I_NP.5)    0.0000                 

(X_U1.X_I_NP.6)    0.0000             (X_U1.X_I_NP.7)     .8338                 

(X_U1.X_I_NP.8)     .8338             (X_U1.X_I_NP2.3)    0.0000                

(X_U1.X_I_NP2.4)    0.0000            (X_U1.X_I_NP2.5)    0.0000                

(X_U1.X_I_NP2.6)    0.0000            (X_U1.X_I_NP2.7)     .8338                

(X_U1.X_I_NP2.8)     .8338            (X_U1.X_VOS_VS_VCM.1)    -.0067       




    VOLTAGE SOURCE CURRENTS
    NAME         CURRENT

    V_V1         1.290E-02
    V_V2        -1.293E-02
    V_V3        -1.300E-05
    X_U1.V_VCM_MAX  -3.300E-09
    X_U1.V_VCM_MIN   3.300E-09
    X_U1.X_H3.VH_H3  -2.637E-05
    X_U1.X_VOS_VS_VCM.V1  -7.038E-16

    TOTAL POWER DISSIPATION   1.29E-01  WATTS



          JOB CONCLUDED

**** 12/16/20 16:10:51 ******* PSpice 17.4.0 (Nov 2018) ******* ID# 0 ********

 ** Profile: "SCHEMATIC1-ac_sweep"  [ C:\Users\a0232073\Desktop\GWL_Models\OPA695\AppendScript\OPA695_PSPICE\opa695_pspice-pspicefile


 ****     JOB STATISTICS SUMMARY


******************************************************************************



  License check-out time            =        3.16
  Total job time (using Solver 1)   =        3.81
